
**** 01/06/25 15:15:25 ********* PSpice 9.2 (Mar 2000) ******** ID# 0 ********

 ** Profile: "SCHEMATIC1-Sim3_BandaDeFrecventa"  [ D:\FACULTATE\AN_1_MASTER\PAC\Teme\Tema5_EtajAmplClAB\tema5_etajamplclab-SCHEMATIC1


 ****     CIRCUIT DESCRIPTION


******************************************************************************




** Creating circuit file "tema5_etajamplclab-SCHEMATIC1-Sim3_BandaDeFrecventa.sim.cir" 
** WARNING: THIS AUTOMATICALLY GENERATED FILE MAY BE OVERWRITTEN BY SUBSEQUENT SIMULATIONS

*Libraries: 
* Local Libraries :
* From [PSPICE NETLIST] section of C:\Program Files\Orcad\PSpice\PSpice.ini file:
.lib "nom.lib" 

*Analysis directives: 
.AC DEC 100 10 100000
.OP
.MC 6 AC V([2]) YMAX OUTPUT ALL 
.PROBE V(*) I(*) W(*) D(*) NOISE(*) 
.INC ".\tema5_etajamplclab-SCHEMATIC1.net" 



**** INCLUDING tema5_etajamplclab-SCHEMATIC1.net ****
* source TEMA5_ETAJAMPLCLAB
R_R1         N01026 N00969  100k  
V_V2         N00969 0 12Vdc
V_V1         1 0 DC 0Vdc AC 500m 
R_R2         0 N01026  15k  
C_C1         1 N01026  1u  
R_R3         4 N00969  1k  
C_C2         3 2  1000u  
R_R4         0 N01142  100  
Q_Q1         N00969 4 3 BC107A 
R_R5         0 2  16  
Q_Q2         5 N01026 N01142 BC107A 
D_D1         4 N01086 D1N4148 
Q_Q3         0 5 3 BC177 
D_D2         N01086 5 D1N4148 
.PARAM  f=250 v=250m

**** RESUMING tema5_etajamplclab-SCHEMATIC1-Sim3_BandaDeFrecventa.sim.cir ****
.END

**** 01/06/25 15:15:25 ********* PSpice 9.2 (Mar 2000) ******** ID# 0 ********

 ** Profile: "SCHEMATIC1-Sim3_BandaDeFrecventa"  [ D:\FACULTATE\AN_1_MASTER\PAC\Teme\Tema5_EtajAmplClAB\tema5_etajamplclab-SCHEMATIC1


 ****     Diode MODEL PARAMETERS


******************************************************************************




               D1N4148         
          IS    2.682000E-09 
           N    1.836        
         ISR    1.565000E-09 
         IKF     .04417      
          BV  100            
         IBV  100.000000E-06 
          RS     .5664       
          TT   11.540000E-09 
         CJO    4.000000E-12 
          VJ     .5          
           M     .3333       


**** 01/06/25 15:15:25 ********* PSpice 9.2 (Mar 2000) ******** ID# 0 ********

 ** Profile: "SCHEMATIC1-Sim3_BandaDeFrecventa"  [ D:\FACULTATE\AN_1_MASTER\PAC\Teme\Tema5_EtajAmplClAB\tema5_etajamplclab-SCHEMATIC1


 ****     BJT MODEL PARAMETERS


******************************************************************************




               BC107A          BC177           
               NPN             PNP             
          IS    7.049000E-15  336.700000E-15 
          BF  375.5           154.4          
          NF    1               1            
         VAF  116.3            55.46         
         IKF    4.589            .2994       
         ISE    7.049000E-15  412.100000E-15 
          NE    1.281           1.429        
          BR    2.611           3.99         
          NR    1               1            
         IKR    5.313           9.726        
         ISC  121.700000E-12    1.030000E-09 
          NC    1.865           1.958        
          NK                     .7028       
          RC    1.464           1.833        
         CJE   11.500000E-12   33.000000E-12 
         VJE     .5              .5          
         MJE     .2717           .3333       
         CJC    5.380000E-12   11.000000E-12 
         VJC     .6218           .5          
         MJC     .329            .2223       
          TF  451.000000E-12  847.700000E-12 
         XTF   17.43           23.26         
         VTF   10              10            
         ITF    6.194           2.198        
          TR   10.000000E-09   10.000000E-09 
         XTB    1.5             1.5          
          CN    2.42            2.2          
           D     .87             .52         


WARNING -- No models had tolerances.  .MC or .WCASE ignored
**** 01/06/25 15:15:25 ********* PSpice 9.2 (Mar 2000) ******** ID# 0 ********

 ** Profile: "SCHEMATIC1-Sim3_BandaDeFrecventa"  [ D:\FACULTATE\AN_1_MASTER\PAC\Teme\Tema5_EtajAmplClAB\tema5_etajamplclab-SCHEMATIC1


 ****     SMALL SIGNAL BIAS SOLUTION       TEMPERATURE =   27.000 DEG C


******************************************************************************



 NODE   VOLTAGE     NODE   VOLTAGE     NODE   VOLTAGE     NODE   VOLTAGE


(    1)    0.0000  (    2)    0.0000  (    3)    6.1210  (    4)    6.8564      

(    5)    5.4853  (N00969)   12.0000 (N01026)    1.2270 (N01086)    6.1709     

(N01142)     .5212 




    VOLTAGE SOURCE CURRENTS
    NAME         CURRENT

    V_V2        -2.158E-02
    V_V1         0.000E+00

    TOTAL POWER DISSIPATION   2.59E-01  WATTS


**** 01/06/25 15:15:25 ********* PSpice 9.2 (Mar 2000) ******** ID# 0 ********

 ** Profile: "SCHEMATIC1-Sim3_BandaDeFrecventa"  [ D:\FACULTATE\AN_1_MASTER\PAC\Teme\Tema5_EtajAmplClAB\tema5_etajamplclab-SCHEMATIC1


 ****     OPERATING POINT INFORMATION      TEMPERATURE =   27.000 DEG C


******************************************************************************






**** DIODES


NAME         D_D1        D_D2      
MODEL        D1N4148     D1N4148   
ID           5.07E-03    5.07E-03 
VD           6.86E-01    6.86E-01 
REQ          9.78E+00    9.78E+00 
CAP          1.19E-09    1.19E-09 


**** BIPOLAR JUNCTION TRANSISTORS


NAME         Q_Q1        Q_Q2        Q_Q3      
MODEL        BC107A      BC107A      BC177     
IB           7.25E-05    2.59E-05   -1.15E-04 
IC           1.63E-02    5.19E-03   -1.63E-02 
VBE          7.35E-01    7.06E-01   -6.36E-01 
VBC         -5.14E+00   -4.26E+00    5.49E+00 
VCE          5.88E+00    4.96E+00   -6.12E+00 
BETADC       2.25E+02    2.00E+02    1.41E+02 
GM           6.29E-01    2.00E-01    5.88E-01 
RPI          3.93E+02    1.12E+03    2.32E+02 
RX           0.00E+00    0.00E+00    0.00E+00 
RO           7.44E+03    2.32E+04    3.74E+03 
CBE          3.05E-10    1.11E-10    5.63E-10 
CBC          2.59E-12    2.73E-12    6.34E-12 
CJS          0.00E+00    0.00E+00    0.00E+00 
BETAAC       2.47E+02    2.24E+02    1.36E+02 
CBX/CBX2     0.00E+00    0.00E+00    0.00E+00 
FT/FT2       3.25E+08    2.80E+08    1.64E+08 



          JOB CONCLUDED

          TOTAL JOB TIME             .03
