
**** 01/06/25 14:35:55 ********* PSpice 9.2 (Mar 2000) ******** ID# 0 ********

 ** Profile: "SCHEMATIC1-Sim_Transient"  [ D:\FACULTATE\AN_1_MASTER\PAC\Teme\Tema5_EtajAmplClAB\tema5_etajamplclab-SCHEMATIC1-Sim_Tra


 ****     CIRCUIT DESCRIPTION


******************************************************************************




** Creating circuit file "tema5_etajamplclab-SCHEMATIC1-Sim_Transient.sim.cir" 
** WARNING: THIS AUTOMATICALLY GENERATED FILE MAY BE OVERWRITTEN BY SUBSEQUENT SIMULATIONS

*Libraries: 
* Local Libraries :
* From [PSPICE NETLIST] section of C:\Program Files\Orcad\PSpice\PSpice.ini file:
.lib "nom.lib" 

*Analysis directives: 
.TRAN  0 10m 0 1u 
.PROBE V(*) I(*) W(*) D(*) NOISE(*) 
.INC ".\tema5_etajamplclab-SCHEMATIC1.net" 



**** INCLUDING tema5_etajamplclab-SCHEMATIC1.net ****
* source TEMA5_ETAJAMPLCLAB
R_R1         N01026 N00969  100k  
V_V2         N00969 0 12Vdc
R_R2         0 N01026  15k  
C_C1         1 N01026  1u  
R_R3         4 N00969  1k  
C_C2         3 2  1000u  
R_R4         0 N01142  100  
Q_Q1         N00969 4 3 BC107A 
R_R5         0 2  16  
Q_Q2         5 N01026 N01142 BC107A 
D_D1         4 N01086 D1N4148 
Q_Q3         0 5 3 BC177 
D_D2         N01086 5 D1N4148 
V_V1         1 0  
+SIN 0 {v} {f} 0 0 0
.PARAM  f=250 v=250m

**** RESUMING tema5_etajamplclab-SCHEMATIC1-Sim_Transient.sim.cir ****
.END

**** 01/06/25 14:35:55 ********* PSpice 9.2 (Mar 2000) ******** ID# 0 ********

 ** Profile: "SCHEMATIC1-Sim_Transient"  [ D:\FACULTATE\AN_1_MASTER\PAC\Teme\Tema5_EtajAmplClAB\tema5_etajamplclab-SCHEMATIC1-Sim_Tra


 ****     Diode MODEL PARAMETERS


******************************************************************************




               D1N4148         
          IS    2.682000E-09 
           N    1.836        
         ISR    1.565000E-09 
         IKF     .04417      
          BV  100            
         IBV  100.000000E-06 
          RS     .5664       
          TT   11.540000E-09 
         CJO    4.000000E-12 
          VJ     .5          
           M     .3333       


**** 01/06/25 14:35:55 ********* PSpice 9.2 (Mar 2000) ******** ID# 0 ********

 ** Profile: "SCHEMATIC1-Sim_Transient"  [ D:\FACULTATE\AN_1_MASTER\PAC\Teme\Tema5_EtajAmplClAB\tema5_etajamplclab-SCHEMATIC1-Sim_Tra


 ****     BJT MODEL PARAMETERS


******************************************************************************




               BC107A          BC177           
               NPN             PNP             
          IS    7.049000E-15  336.700000E-15 
          BF  375.5           154.4          
          NF    1               1            
         VAF  116.3            55.46         
         IKF    4.589            .2994       
         ISE    7.049000E-15  412.100000E-15 
          NE    1.281           1.429        
          BR    2.611           3.99         
          NR    1               1            
         IKR    5.313           9.726        
         ISC  121.700000E-12    1.030000E-09 
          NC    1.865           1.958        
          NK                     .7028       
          RC    1.464           1.833        
         CJE   11.500000E-12   33.000000E-12 
         VJE     .5              .5          
         MJE     .2717           .3333       
         CJC    5.380000E-12   11.000000E-12 
         VJC     .6218           .5          
         MJC     .329            .2223       
          TF  451.000000E-12  847.700000E-12 
         XTF   17.43           23.26         
         VTF   10              10            
         ITF    6.194           2.198        
          TR   10.000000E-09   10.000000E-09 
         XTB    1.5             1.5          
          CN    2.42            2.2          
           D     .87             .52         


**** 01/06/25 14:35:55 ********* PSpice 9.2 (Mar 2000) ******** ID# 0 ********

 ** Profile: "SCHEMATIC1-Sim_Transient"  [ D:\FACULTATE\AN_1_MASTER\PAC\Teme\Tema5_EtajAmplClAB\tema5_etajamplclab-SCHEMATIC1-Sim_Tra


 ****     INITIAL TRANSIENT SOLUTION       TEMPERATURE =   27.000 DEG C


******************************************************************************



 NODE   VOLTAGE     NODE   VOLTAGE     NODE   VOLTAGE     NODE   VOLTAGE


(    1)    0.0000  (    2)    0.0000  (    3)    6.1210  (    4)    6.8564      

(    5)    5.4853  (N00969)   12.0000 (N01026)    1.2270 (N01086)    6.1709     

(N01142)     .5212 




    VOLTAGE SOURCE CURRENTS
    NAME         CURRENT

    V_V2        -2.158E-02
    V_V1         0.000E+00

    TOTAL POWER DISSIPATION   2.59E-01  WATTS



          JOB CONCLUDED

          TOTAL JOB TIME             .36
